
T032C 000:081 SEGGER J-Link V6.44h Log File (0000ms, 0051ms total)
T032C 000:081 DLL Compiled: May  3 2019 17:37:09 (0000ms, 0051ms total)
T032C 000:081 Logging started @ 2019-08-07 15:06 (0000ms, 0051ms total)
T032C 000:081 JLINK_SetWarnOutHandler(...) (0000ms, 0051ms total)
T032C 000:081 JLINK_OpenEx(...)
Firmware: J-Link V10 compiled Mar 21 2019 15:43:57
Hardware: V10.10
S/N: 260112443
OEM: SEGGER-EDU
Feature(s): FlashBP, GDB
TELNET listener socket opened on port 19021WEBSRV 
Starting webserver (0026ms, 0077ms total)
T032C 000:081 WEBSRV Webserver running on local port 19080 (0026ms, 0077ms total)
T032C 000:081   returns O.K. (0026ms, 0077ms total)
T032C 000:107 JLINK_SetErrorOutHandler(...) (0000ms, 0077ms total)
T032C 000:107 JLINK_ExecCommand("ProjectFile = "D:\Documents\NXP\SDK\boards\qn908xcdk\wireless_examples\bluetooth\NBLE_DEMO_GIT\bm\mdk\JLinkSettings.ini"", ...). Ref file found at: C:\Keil\ARM\Segger\JLinkDevices.ref (0002ms, 0079ms total)
T032C 000:107 XML referenced by ref file: D:\Program Files\SEGGER\JLink_V644h\JLinkDevices.xml (0002ms, 0079ms total)
T032C 000:107 D:\Program Files\SEGGER\JLink_V644h\JLinkDevices.xml evaluated successfully.  returns 0x00 (0051ms, 0128ms total)
T032C 000:163 JLINK_ExecCommand("Device = QN9080C", ...). Device "QN9080C" selected.  returns 0x00 (0002ms, 0130ms total)
T032C 000:165 JLINK_ExecCommand("DisableConnectionTimeout", ...).   returns 0x01 (0000ms, 0130ms total)
T032C 000:165 JLINK_GetHardwareVersion()  returns 0x18A88 (0000ms, 0130ms total)
T032C 000:165 JLINK_GetDLLVersion()  returns 64408 (0000ms, 0130ms total)
T032C 000:166 JLINK_GetDLLVersion()  returns 64408 (0000ms, 0130ms total)
T032C 000:166 JLINK_GetCompileDateTime() (0000ms, 0130ms total)
T032C 000:166 JLINK_GetFirmwareString(...) (0000ms, 0130ms total)
T032C 000:167 JLINK_GetHardwareVersion()  returns 0x18A88 (0000ms, 0130ms total)
T032C 000:169 JLINK_TIF_Select(JLINKARM_TIF_SWD)  returns 0x00 (0002ms, 0132ms total)
T032C 000:171 JLINK_SetSpeed(5000) (0000ms, 0132ms total)
T032C 000:171 JLINK_GetId() >0x10B TIF>Found SW-DP with ID 0x2BA01477 >0x0D TIF> >0x28 TIF> >0x0D TIF> >0x28 TIF> >0x0D TIF> >0x28 TIF> >0x0D TIF> >0x28 TIF> >0x0D TIF> >0x21 TIF> >0x0D TIF> >0x28 TIF>Scanning AP map to find all available APs >0x0D TIF> >0x28 TIF> >0x0D TIF> >0x21 TIF> >0x0D TIF> >0x21 TIF> >0x0D TIF> >0x28 TIF> >0x0D TIF> >0x21 TIF> >0x0D TIF> >0x21 TIF>AP[1]: Stopped AP scan as end of AP map has been reachedAP[0]: AHB-AP (IDR: 0x24770011)Iterating through AP map to find AHB-AP to use
 >0x42 TIF> >0x28 TIF> >0x0D TIF> >0x28 TIF> >0x0D TIF> >0x21 TIF> >0x0D TIF> >0x21 TIF> >0x42 TIF> >0x28 TIF> >0x0D TIF> >0x28 TIF> >0x0D TIF> >0x28 TIF> >0x0D TIF> >0x21 TIF> >0x0D TIF> >0x21 TIF>AP[0]: Core foundAP[0]: AHB-AP ROM base: 0xE00FF000 >0x0D TIF> >0x28 TIF> >0x0D TIF> >0x28 TIF> >0x0D TIF> >0x28 TIF> >0x0D TIF> >0x21 TIF> >0x0D TIF> >0x21 TIF>CPUID register: 0x410FC241. Implementer code: 0x41 (ARM)Found Cortex-M4 r0p1, Little endian. -- Max. mem block: 0x000030A8
 -- CPU_ReadMem(4 bytes @ 0xE000EDF0) -- CPU_WriteMem(4 bytes @ 0xE000EDF0) -- CPU_ReadMem(4 bytes @ 0xE0002000)FPUnit: 6 code (BP) slots and 2 literal slots -- CPU_ReadMem(4 bytes @ 0xE000EDFC) -- CPU_WriteMem(4 bytes @ 0xE000EDFC) -- CPU_ReadMem(4 bytes @ 0xE0001000) -- CPU_WriteMem(4 bytes @ 0xE0001000) -- CPU_ReadMem(4 bytes @ 0xE000ED88) -- CPU_WriteMem(4 bytes @ 0xE000ED88) -- CPU_ReadMem(4 bytes @ 0xE000ED88) -- CPU_WriteMem(4 bytes @ 0xE000ED88)CoreSight components:ROMTbl[0] @ E00FF000
 -- CPU_ReadMem(16 bytes @ 0xE00FF000) -- CPU_ReadMem(16 bytes @ 0xE000EFF0) -- CPU_ReadMem(16 bytes @ 0xE000EFE0)ROMTbl[0][0]: E000E000, CID: B105E00D, PID: 000BB00C SCS-M7 -- CPU_ReadMem(16 bytes @ 0xE0001FF0) -- CPU_ReadMem(16 bytes @ 0xE0001FE0)ROMTbl[0][1]: E0001000, CID: B105E00D, PID: 003BB002 DWT -- CPU_ReadMem(16 bytes @ 0xE0002FF0) -- CPU_ReadMem(16 bytes @ 0xE0002FE0)ROMTbl[0][2]: E0002000, CID: B105E00D, PID: 002BB003 FPB -- CPU_ReadMem(16 bytes @ 0xE0000FF0)
 -- CPU_ReadMem(16 bytes @ 0xE0000FE0)ROMTbl[0][3]: E0000000, CID: B105E00D, PID: 003BB001 ITM -- CPU_ReadMem(16 bytes @ 0xE00FF010) -- CPU_ReadMem(16 bytes @ 0xE0040FF0) -- CPU_ReadMem(16 bytes @ 0xE0040FE0)ROMTbl[0][4]: E0040000, CID: B105900D, PID: 000BB9A1 TPIU -- CPU_ReadMem(16 bytes @ 0xE0041FF0) -- CPU_ReadMem(16 bytes @ 0xE0041FE0)ROMTbl[0][5]: E0041000, CID: B105900D, PID: 000BB925 ETM -- CPU_ReadMem(4 bytes @ 0x40081040) >0x0D TIF> >0x21 TIF>  returns 0x2BA01477 (0148ms, 0280ms total)
T032C 000:319 JLINK_GetDLLVersion()  returns 64408 (0000ms, 0280ms total)
T032C 000:319 JLINK_CORE_GetFound()  returns 0xE0000FF (0000ms, 0280ms total)
T032C 000:319 JLINK_GetDebugInfo(0x100 = JLINKARM_ROM_TABLE_ADDR_INDEX) -- Value=0xE00FF000  returns 0x00 (0000ms, 0280ms total)
T032C 000:320 JLINK_GetDebugInfo(0x100 = JLINKARM_ROM_TABLE_ADDR_INDEX) -- Value=0xE00FF000  returns 0x00 (0000ms, 0280ms total)
T032C 000:320 JLINK_GetDebugInfo(0x101 = JLINKARM_DEBUG_INFO_ETM_ADDR_INDEX) -- Value=0xE0041000  returns 0x00 (0000ms, 0280ms total)
T032C 000:320 JLINK_GetDebugInfo(0x102 = JLINKARM_DEBUG_INFO_MTB_ADDR_INDEX) -- Value=0x00000000  returns 0x00 (0000ms, 0280ms total)
T032C 000:320 JLINK_GetDebugInfo(0x103 = JLINKARM_DEBUG_INFO_TPIU_ADDR_INDEX) -- Value=0xE0040000  returns 0x00 (0000ms, 0280ms total)
T032C 000:320 JLINK_GetDebugInfo(0x104 = JLINKARM_DEBUG_INFO_ITM_ADDR_INDEX) -- Value=0xE0000000  returns 0x00 (0000ms, 0280ms total)
T032C 000:320 JLINK_GetDebugInfo(0x105 = JLINKARM_DEBUG_INFO_DWT_ADDR_INDEX) -- Value=0xE0001000  returns 0x00 (0000ms, 0280ms total)
T032C 000:320 JLINK_GetDebugInfo(0x106 = JLINKARM_DEBUG_INFO_FPB_ADDR_INDEX) -- Value=0xE0002000  returns 0x00 (0000ms, 0280ms total)
T032C 000:320 JLINK_GetDebugInfo(0x107 = JLINKARM_DEBUG_INFO_NVIC_ADDR_INDEX) -- Value=0xE000E000  returns 0x00 (0000ms, 0280ms total)
T032C 000:320 JLINK_GetDebugInfo(0x10C = JLINKARM_DEBUG_INFO_DBG_ADDR_INDEX) -- Value=0xE000EDF0  returns 0x00 (0000ms, 0280ms total)
T032C 000:320 JLINK_ReadMemU32(0xE000EF40, 0x0001 Items, ...) -- CPU_ReadMem(4 bytes @ 0xE000EF40) - Data: 21 00 11 10  returns 1 (0001ms, 0281ms total)
T032C 000:321 JLINK_ReadMemU32(0xE000EF44, 0x0001 Items, ...) -- CPU_ReadMem(4 bytes @ 0xE000EF44) - Data: 11 00 00 11  returns 1 (0000ms, 0281ms total)
T032C 000:321 JLINK_ReadMemU32(0xE000ED00, 0x0001 Items, ...) -- CPU_ReadMem(4 bytes @ 0xE000ED00) - Data: 41 C2 0F 41  returns 1 (0001ms, 0282ms total)
T032C 000:322 JLINK_SetResetType(JLINKARM_CM3_RESET_TYPE_NORMAL)  returns JLINKARM_CM3_RESET_TYPE_NORMAL (0000ms, 0282ms total)
T032C 000:322 JLINK_Reset() -- CPU is running -- CPU_WriteMem(4 bytes @ 0xE000EDFC) -- CPU is running -- CPU_WriteMem(4 bytes @ 0xE000EDFC) -- CPU is running -- CPU_WriteMem(4 bytes @ 0xE000EDFC) -- CPU is running -- CPU_WriteMem(4 bytes @ 0xE000EDFC) -- CPU is running -- CPU_WriteMem(4 bytes @ 0xE000EDFC) -- CPU is running -- CPU_WriteMem(4 bytes @ 0xE0001050) -- CPU is running -- CPU_WriteMem(4 bytes @ 0xE0001054) -- CPU is running -- CPU_WriteMem(4 bytes @ 0xE0001058) -- CPU is running
 -- CPU_WriteMem(4 bytes @ 0xE000ED0C) -- CPU_ReadMem(4 bytes @ 0xE000EDF0) -- CPU_ReadMem(4 bytes @ 0x40000014) -- CPU_WriteMem(4 bytes @ 0x40000014) -- CPU_WriteMem(4 bytes @ 0xE000EDFC) -- CPU_WriteMem(4 bytes @ 0xE0001058) -- CPU_WriteMem(4 bytes @ 0xE0002000) -- CPU_ReadMem(4 bytes @ 0xE000EDFC) -- CPU_ReadMem(4 bytes @ 0xE0001000) (0216ms, 0498ms total)
T032C 000:538 JLINK_Halt()  returns 0x00 (0000ms, 0498ms total)
T032C 000:538 JLINK_IsHalted()  returns TRUE (0000ms, 0498ms total)
T032C 000:538 JLINK_ReadMemU32(0xE000EDF0, 0x0001 Items, ...) -- CPU_ReadMem(4 bytes @ 0xE000EDF0) - Data: 03 00 03 00  returns 1 (0000ms, 0498ms total)
T032C 000:538 JLINK_WriteU32(0xE000EDF0, 0xA05F0003) -- CPU_WriteMem(4 bytes @ 0xE000EDF0)  returns 0 (0001ms, 0499ms total)
T032C 000:539 JLINK_WriteU32(0xE000EDFC, 0x01000000) -- CPU_WriteMem(4 bytes @ 0xE000EDFC)  returns 0 (0001ms, 0500ms total)
T032C 000:541 JLINK_GetHWStatus(...)  returns 0x00 (0001ms, 0501ms total)
T032C 000:543 JLINK_GetNumBPUnits(Type = 0xFFFFFF00)  returns 0x06 (0000ms, 0501ms total)
T032C 000:543 JLINK_GetNumBPUnits(Type = 0xF0)  returns 0x2000 (0000ms, 0501ms total)
T032C 000:543 JLINK_GetNumWPUnits()  returns 0x04 (0000ms, 0501ms total)
T032C 000:544 JLINK_GetSpeed()  returns 0x1388 (0000ms, 0501ms total)
T032C 000:545 JLINK_ReadMemU32(0xE000E004, 0x0001 Items, ...) -- CPU_ReadMem(4 bytes @ 0xE000E004) - Data: 01 00 00 00  returns 1 (0001ms, 0502ms total)
T032C 000:546 JLINK_ReadMemU32(0xE000E004, 0x0001 Items, ...) -- CPU_ReadMem(4 bytes @ 0xE000E004) - Data: 01 00 00 00  returns 1 (0000ms, 0502ms total)
T032C 000:546 JLINK_WriteMem(0xE0001000, 0x001C Bytes, ...) - Data: 01 00 00 00 00 00 00 00 00 00 00 00 00 00 00 00 ... -- CPU_WriteMem(28 bytes @ 0xE0001000)  returns 0x1C (0001ms, 0503ms total)
T032C 000:547 JLINK_ReadMem (0xE0001000, 0x001C Bytes, ...) -- CPU_ReadMem(28 bytes @ 0xE0001000) - Data: 01 00 00 40 00 00 00 00 00 00 00 00 00 00 00 00 ...  returns 0x00 (0001ms, 0504ms total)
T032C 000:548 JLINK_Halt()  returns 0x00 (0000ms, 0504ms total)
T032C 000:548 JLINK_IsHalted()  returns TRUE (0000ms, 0504ms total)
T032C 000:551 JLINK_WriteMem(0x04000400, 0x0C5C Bytes, ...) - Data: 00 BE 0A E0 0D 78 2D 06 68 40 08 24 40 00 00 D3 ... -- CPU_WriteMem(3164 bytes @ 0x04000400)  returns 0xC5C (0010ms, 0514ms total)
T032C 000:561 JLINK_WriteReg(R0, 0x00000000)  returns 0x00 (0000ms, 0514ms total)
T032C 000:561 JLINK_WriteReg(R1, 0x00F42400)  returns 0x00 (0000ms, 0514ms total)
T032C 000:561 JLINK_WriteReg(R2, 0x00000001)  returns 0x00 (0000ms, 0514ms total)
T032C 000:561 JLINK_WriteReg(R3, 0x00000000)  returns 0x00 (0000ms, 0514ms total)
T032C 000:561 JLINK_WriteReg(R4, 0x00000000)  returns 0x00 (0000ms, 0514ms total)
T032C 000:561 JLINK_WriteReg(R5, 0x00000000)  returns 0x00 (0000ms, 0514ms total)
T032C 000:561 JLINK_WriteReg(R6, 0x00000000)  returns 0x00 (0000ms, 0514ms total)
T032C 000:561 JLINK_WriteReg(R7, 0x00000000)  returns 0x00 (0000ms, 0514ms total)
T032C 000:561 JLINK_WriteReg(R8, 0x00000000)  returns 0x00 (0000ms, 0514ms total)
T032C 000:561 JLINK_WriteReg(R9, 0x04001034)  returns 0x00 (0000ms, 0514ms total)
T032C 000:561 JLINK_WriteReg(R10, 0x00000000)  returns 0x00 (0000ms, 0514ms total)
T032C 000:561 JLINK_WriteReg(R11, 0x00000000)  returns 0x00 (0000ms, 0514ms total)
T032C 000:561 JLINK_WriteReg(R12, 0x00000000)  returns 0x00 (0000ms, 0514ms total)
T032C 000:561 JLINK_WriteReg(R13 (SP), 0x04010000)  returns 0x00 (0000ms, 0514ms total)
T032C 000:561 JLINK_WriteReg(R14, 0x04000401)  returns 0x00 (0000ms, 0514ms total)
T032C 000:561 JLINK_WriteReg(R15 (PC), 0x04000BCC)  returns 0x00 (0000ms, 0514ms total)
T032C 000:561 JLINK_WriteReg(XPSR, 0x01000000)  returns 0x00 (0000ms, 0514ms total)
T032C 000:561 JLINK_WriteReg(MSP, 0x04010000)  returns 0x00 (0000ms, 0514ms total)
T032C 000:561 JLINK_WriteReg(PSP, 0x04010000)  returns 0x00 (0000ms, 0514ms total)
T032C 000:561 JLINK_WriteReg(CFBP, 0x00000000)  returns 0x00 (0000ms, 0514ms total)
T032C 000:561 JLINK_SetBPEx(Addr = 0x04000400, Type = 0xFFFFFFF2)  returns 0x00000001 (0000ms, 0514ms total)
T032C 000:561 JLINK_Go() -- CPU_WriteMem(4 bytes @ 0xE0002000) -- CPU_ReadMem(4 bytes @ 0xE0001000) -- CPU_WriteMem(4 bytes @ 0xE0002008) -- CPU_WriteMem(4 bytes @ 0xE000200C) -- CPU_WriteMem(4 bytes @ 0xE0002010) -- CPU_WriteMem(4 bytes @ 0xE0002014) -- CPU_WriteMem(4 bytes @ 0xE0002018) -- CPU_WriteMem(4 bytes @ 0xE000201C) -- CPU_WriteMem(4 bytes @ 0xE0001004) (0005ms, 0519ms total)
T032C 000:566 JLINK_IsHalted()  returns TRUE (0003ms, 0522ms total)
T032C 000:569 JLINK_ReadReg(R15 (PC))  returns 0x04000400 (0000ms, 0519ms total)
T032C 000:569 JLINK_ClrBPEx(BPHandle = 0x00000001)  returns 0x00 (0000ms, 0519ms total)
T032C 000:569 JLINK_ReadReg(R0)  returns 0x00000000 (0000ms, 0519ms total)
T032C 000:569 JLINK_WriteReg(R0, 0x00000000)  returns 0x00 (0000ms, 0519ms total)
T032C 000:569 JLINK_WriteReg(R1, 0x00F42400)  returns 0x00 (0000ms, 0519ms total)
T032C 000:569 JLINK_WriteReg(R2, 0x00000001)  returns 0x00 (0000ms, 0519ms total)
T032C 000:569 JLINK_WriteReg(R3, 0x00000000)  returns 0x00 (0000ms, 0519ms total)
T032C 000:569 JLINK_WriteReg(R4, 0x00000000)  returns 0x00 (0000ms, 0519ms total)
T032C 000:569 JLINK_WriteReg(R5, 0x00000000)  returns 0x00 (0000ms, 0519ms total)
T032C 000:569 JLINK_WriteReg(R6, 0x00000000)  returns 0x00 (0000ms, 0519ms total)
T032C 000:569 JLINK_WriteReg(R7, 0x00000000)  returns 0x00 (0000ms, 0519ms total)
T032C 000:569 JLINK_WriteReg(R8, 0x00000000)  returns 0x00 (0000ms, 0519ms total)
T032C 000:569 JLINK_WriteReg(R9, 0x04001034)  returns 0x00 (0000ms, 0519ms total)
T032C 000:569 JLINK_WriteReg(R10, 0x00000000)  returns 0x00 (0000ms, 0519ms total)
T032C 000:569 JLINK_WriteReg(R11, 0x00000000)  returns 0x00 (0000ms, 0519ms total)
T032C 000:569 JLINK_WriteReg(R12, 0x00000000)  returns 0x00 (0000ms, 0519ms total)
T032C 000:569 JLINK_WriteReg(R13 (SP), 0x04010000)  returns 0x00 (0000ms, 0519ms total)
T032C 000:569 JLINK_WriteReg(R14, 0x04000401)  returns 0x00 (0000ms, 0519ms total)
T032C 000:569 JLINK_WriteReg(R15 (PC), 0x040007C8)  returns 0x00 (0000ms, 0519ms total)
T032C 000:569 JLINK_WriteReg(XPSR, 0x01000000)  returns 0x00 (0000ms, 0519ms total)
T032C 000:569 JLINK_WriteReg(MSP, 0x04010000)  returns 0x00 (0000ms, 0519ms total)
T032C 000:569 JLINK_WriteReg(PSP, 0x04010000)  returns 0x00 (0000ms, 0519ms total)
T032C 000:569 JLINK_WriteReg(CFBP, 0x00000000)  returns 0x00 (0000ms, 0519ms total)
T032C 000:569 JLINK_SetBPEx(Addr = 0x04000400, Type = 0xFFFFFFF2)  returns 0x00000002 (0000ms, 0519ms total)
T032C 000:569 JLINK_Go() -- CPU_WriteMem(4 bytes @ 0xE0002000) -- CPU_ReadMem(4 bytes @ 0xE0001000) (0004ms, 0523ms total)
T032C 000:573 JLINK_IsHalted()  returns FALSE (0000ms, 0523ms total)
T032C 000:621 JLINK_IsHalted()  returns TRUE (0002ms, 0525ms total)
T032C 000:623 JLINK_ReadReg(R15 (PC))  returns 0x04000400 (0000ms, 0523ms total)
T032C 000:623 JLINK_ClrBPEx(BPHandle = 0x00000002)  returns 0x00 (0000ms, 0523ms total)
T032C 000:623 JLINK_ReadReg(R0)  returns 0x00000000 (0000ms, 0523ms total)
T032C 000:673 JLINK_WriteReg(R0, 0x00000001)  returns 0x00 (0000ms, 0523ms total)
T032C 000:673 JLINK_WriteReg(R1, 0x00F42400)  returns 0x00 (0000ms, 0523ms total)
T032C 000:673 JLINK_WriteReg(R2, 0x00000001)  returns 0x00 (0000ms, 0523ms total)
T032C 000:673 JLINK_WriteReg(R3, 0x00000000)  returns 0x00 (0000ms, 0523ms total)
T032C 000:673 JLINK_WriteReg(R4, 0x00000000)  returns 0x00 (0000ms, 0523ms total)
T032C 000:673 JLINK_WriteReg(R5, 0x00000000)  returns 0x00 (0000ms, 0523ms total)
T032C 000:673 JLINK_WriteReg(R6, 0x00000000)  returns 0x00 (0000ms, 0523ms total)
T032C 000:673 JLINK_WriteReg(R7, 0x00000000)  returns 0x00 (0000ms, 0523ms total)
T032C 000:673 JLINK_WriteReg(R8, 0x00000000)  returns 0x00 (0000ms, 0523ms total)
T032C 000:673 JLINK_WriteReg(R9, 0x04001034)  returns 0x00 (0000ms, 0523ms total)
T032C 000:673 JLINK_WriteReg(R10, 0x00000000)  returns 0x00 (0000ms, 0523ms total)
T032C 000:673 JLINK_WriteReg(R11, 0x00000000)  returns 0x00 (0000ms, 0523ms total)
T032C 000:673 JLINK_WriteReg(R12, 0x00000000)  returns 0x00 (0000ms, 0523ms total)
T032C 000:673 JLINK_WriteReg(R13 (SP), 0x04010000)  returns 0x00 (0000ms, 0523ms total)
T032C 000:673 JLINK_WriteReg(R14, 0x04000401)  returns 0x00 (0000ms, 0523ms total)
T032C 000:673 JLINK_WriteReg(R15 (PC), 0x04000D3C)  returns 0x00 (0000ms, 0523ms total)
T032C 000:673 JLINK_WriteReg(XPSR, 0x01000000)  returns 0x00 (0000ms, 0523ms total)
T032C 000:673 JLINK_WriteReg(MSP, 0x04010000)  returns 0x00 (0000ms, 0523ms total)
T032C 000:673 JLINK_WriteReg(PSP, 0x04010000)  returns 0x00 (0000ms, 0523ms total)
T032C 000:673 JLINK_WriteReg(CFBP, 0x00000000)  returns 0x00 (0000ms, 0523ms total)
T032C 000:673 JLINK_SetBPEx(Addr = 0x04000400, Type = 0xFFFFFFF2)  returns 0x00000003 (0000ms, 0523ms total)
T032C 000:673 JLINK_Go() -- CPU_WriteMem(4 bytes @ 0xE0002000) -- CPU_ReadMem(4 bytes @ 0xE0001000) (0004ms, 0527ms total)
T032C 000:677 JLINK_IsHalted()  returns TRUE (0003ms, 0530ms total)
T032C 000:680 JLINK_ReadReg(R15 (PC))  returns 0x04000400 (0000ms, 0527ms total)
T032C 000:680 JLINK_ClrBPEx(BPHandle = 0x00000003)  returns 0x00 (0000ms, 0527ms total)
T032C 000:680 JLINK_ReadReg(R0)  returns 0x00000000 (0000ms, 0527ms total)
T032C 000:682 JLINK_WriteMem(0x04000400, 0x0C5C Bytes, ...) - Data: 00 BE 0A E0 0D 78 2D 06 68 40 08 24 40 00 00 D3 ... -- CPU_WriteMem(3164 bytes @ 0x04000400)  returns 0xC5C (0010ms, 0537ms total)
T032C 000:692 JLINK_WriteReg(R0, 0x00000000)  returns 0x00 (0001ms, 0538ms total)
T032C 000:693 JLINK_WriteReg(R1, 0x00F42400)  returns 0x00 (0000ms, 0538ms total)
T032C 000:693 JLINK_WriteReg(R2, 0x00000002)  returns 0x00 (0000ms, 0538ms total)
T032C 000:693 JLINK_WriteReg(R3, 0x00000000)  returns 0x00 (0000ms, 0538ms total)
T032C 000:693 JLINK_WriteReg(R4, 0x00000000)  returns 0x00 (0000ms, 0538ms total)
T032C 000:693 JLINK_WriteReg(R5, 0x00000000)  returns 0x00 (0000ms, 0538ms total)
T032C 000:693 JLINK_WriteReg(R6, 0x00000000)  returns 0x00 (0000ms, 0538ms total)
T032C 000:693 JLINK_WriteReg(R7, 0x00000000)  returns 0x00 (0000ms, 0538ms total)
T032C 000:693 JLINK_WriteReg(R8, 0x00000000)  returns 0x00 (0000ms, 0538ms total)
T032C 000:693 JLINK_WriteReg(R9, 0x04001034)  returns 0x00 (0000ms, 0538ms total)
T032C 000:693 JLINK_WriteReg(R10, 0x00000000)  returns 0x00 (0000ms, 0538ms total)
T032C 000:693 JLINK_WriteReg(R11, 0x00000000)  returns 0x00 (0000ms, 0538ms total)
T032C 000:693 JLINK_WriteReg(R12, 0x00000000)  returns 0x00 (0000ms, 0538ms total)
T032C 000:693 JLINK_WriteReg(R13 (SP), 0x04010000)  returns 0x00 (0000ms, 0538ms total)
T032C 000:693 JLINK_WriteReg(R14, 0x04000401)  returns 0x00 (0000ms, 0538ms total)
T032C 000:693 JLINK_WriteReg(R15 (PC), 0x04000BCC)  returns 0x00 (0000ms, 0538ms total)
T032C 000:693 JLINK_WriteReg(XPSR, 0x01000000)  returns 0x00 (0000ms, 0538ms total)
T032C 000:693 JLINK_WriteReg(MSP, 0x04010000)  returns 0x00 (0000ms, 0538ms total)
T032C 000:693 JLINK_WriteReg(PSP, 0x04010000)  returns 0x00 (0000ms, 0538ms total)
T032C 000:693 JLINK_WriteReg(CFBP, 0x00000000)  returns 0x00 (0000ms, 0538ms total)
T032C 000:693 JLINK_SetBPEx(Addr = 0x04000400, Type = 0xFFFFFFF2)  returns 0x00000004 (0000ms, 0538ms total)
T032C 000:693 JLINK_Go() -- CPU_WriteMem(4 bytes @ 0xE0002000) -- CPU_ReadMem(4 bytes @ 0xE0001000) (0004ms, 0542ms total)
T032C 000:697 JLINK_IsHalted()  returns TRUE (0002ms, 0544ms total)
T032C 000:699 JLINK_ReadReg(R15 (PC))  returns 0x04000400 (0000ms, 0542ms total)
T032C 000:699 JLINK_ClrBPEx(BPHandle = 0x00000004)  returns 0x00 (0000ms, 0542ms total)
T032C 000:699 JLINK_ReadReg(R0)  returns 0x00000000 (0000ms, 0542ms total)
T032C 000:699 JLINK_WriteMem(0x040020A8, 0x0800 Bytes, ...) - Data: 70 89 00 04 69 02 00 00 85 02 00 00 87 02 00 00 ... -- CPU_WriteMem(2048 bytes @ 0x040020A8)  returns 0x800 (0007ms, 0549ms total)
T032C 000:706 JLINK_WriteReg(R0, 0x00000000)  returns 0x00 (0000ms, 0549ms total)
T032C 000:706 JLINK_WriteReg(R1, 0x00000800)  returns 0x00 (0000ms, 0549ms total)
T032C 000:706 JLINK_WriteReg(R2, 0x040020A8)  returns 0x00 (0000ms, 0549ms total)
T032C 000:706 JLINK_WriteReg(R3, 0x00000000)  returns 0x00 (0000ms, 0549ms total)
T032C 000:706 JLINK_WriteReg(R4, 0x00000000)  returns 0x00 (0000ms, 0549ms total)
T032C 000:706 JLINK_WriteReg(R5, 0x00000000)  returns 0x00 (0000ms, 0549ms total)
T032C 000:706 JLINK_WriteReg(R6, 0x00000000)  returns 0x00 (0000ms, 0549ms total)
T032C 000:706 JLINK_WriteReg(R7, 0x00000000)  returns 0x00 (0000ms, 0549ms total)
T032C 000:706 JLINK_WriteReg(R8, 0x00000000)  returns 0x00 (0000ms, 0549ms total)
T032C 000:706 JLINK_WriteReg(R9, 0x04001034)  returns 0x00 (0000ms, 0549ms total)
T032C 000:706 JLINK_WriteReg(R10, 0x00000000)  returns 0x00 (0000ms, 0549ms total)
T032C 000:706 JLINK_WriteReg(R11, 0x00000000)  returns 0x00 (0000ms, 0549ms total)
T032C 000:706 JLINK_WriteReg(R12, 0x00000000)  returns 0x00 (0000ms, 0549ms total)
T032C 000:706 JLINK_WriteReg(R13 (SP), 0x04010000)  returns 0x00 (0000ms, 0549ms total)
T032C 000:706 JLINK_WriteReg(R14, 0x04000401)  returns 0x00 (0000ms, 0549ms total)
T032C 000:706 JLINK_WriteReg(R15 (PC), 0x04000CB4)  returns 0x00 (0000ms, 0549ms total)
T032C 000:706 JLINK_WriteReg(XPSR, 0x01000000)  returns 0x00 (0000ms, 0549ms total)
T032C 000:706 JLINK_WriteReg(MSP, 0x04010000)  returns 0x00 (0000ms, 0549ms total)
T032C 000:706 JLINK_WriteReg(PSP, 0x04010000)  returns 0x00 (0000ms, 0549ms total)
T032C 000:706 JLINK_WriteReg(CFBP, 0x00000000)  returns 0x00 (0000ms, 0549ms total)
T032C 000:706 JLINK_SetBPEx(Addr = 0x04000400, Type = 0xFFFFFFF2)  returns 0x00000005 (0000ms, 0549ms total)
T032C 000:706 JLINK_Go() -- CPU_WriteMem(4 bytes @ 0xE0002000) -- CPU_ReadMem(4 bytes @ 0xE0001000) (0004ms, 0553ms total)
T032C 000:710 JLINK_IsHalted()  returns FALSE (0001ms, 0554ms total)
T032C 000:770 JLINK_IsHalted()  returns TRUE (0002ms, 0555ms total)
T032C 000:772 JLINK_ReadReg(R15 (PC))  returns 0x04000400 (0000ms, 0553ms total)
T032C 000:772 JLINK_ClrBPEx(BPHandle = 0x00000005)  returns 0x00 (0000ms, 0553ms total)
T032C 000:772 JLINK_ReadReg(R0)  returns 0x00000000 (0000ms, 0553ms total)
T032C 000:772 JLINK_WriteMem(0x040020A8, 0x0800 Bytes, ...) - Data: 8C 68 05 9B AB D9 83 1F 19 CD E0 5B 7C 77 00 04 ... -- CPU_WriteMem(2048 bytes @ 0x040020A8)  returns 0x800 (0007ms, 0560ms total)
T032C 000:779 JLINK_WriteReg(R0, 0x00000800)  returns 0x00 (0000ms, 0560ms total)
T032C 000:779 JLINK_WriteReg(R1, 0x00000800)  returns 0x00 (0000ms, 0560ms total)
T032C 000:779 JLINK_WriteReg(R2, 0x040020A8)  returns 0x00 (0000ms, 0560ms total)
T032C 000:779 JLINK_WriteReg(R3, 0x00000000)  returns 0x00 (0000ms, 0560ms total)
T032C 000:779 JLINK_WriteReg(R4, 0x00000000)  returns 0x00 (0000ms, 0560ms total)
T032C 000:779 JLINK_WriteReg(R5, 0x00000000)  returns 0x00 (0000ms, 0560ms total)
T032C 000:779 JLINK_WriteReg(R6, 0x00000000)  returns 0x00 (0000ms, 0560ms total)
T032C 000:779 JLINK_WriteReg(R7, 0x00000000)  returns 0x00 (0000ms, 0560ms total)
T032C 000:779 JLINK_WriteReg(R8, 0x00000000)  returns 0x00 (0000ms, 0560ms total)
T032C 000:779 JLINK_WriteReg(R9, 0x04001034)  returns 0x00 (0000ms, 0560ms total)
T032C 000:779 JLINK_WriteReg(R10, 0x00000000)  returns 0x00 (0000ms, 0560ms total)
T032C 000:779 JLINK_WriteReg(R11, 0x00000000)  returns 0x00 (0000ms, 0560ms total)
T032C 000:779 JLINK_WriteReg(R12, 0x00000000)  returns 0x00 (0000ms, 0560ms total)
T032C 000:779 JLINK_WriteReg(R13 (SP), 0x04010000)  returns 0x00 (0000ms, 0560ms total)
T032C 000:779 JLINK_WriteReg(R14, 0x04000401)  returns 0x00 (0000ms, 0560ms total)
T032C 000:779 JLINK_WriteReg(R15 (PC), 0x04000CB4)  returns 0x00 (0000ms, 0560ms total)
T032C 000:779 JLINK_WriteReg(XPSR, 0x01000000)  returns 0x00 (0000ms, 0560ms total)
T032C 000:779 JLINK_WriteReg(MSP, 0x04010000)  returns 0x00 (0000ms, 0560ms total)
T032C 000:779 JLINK_WriteReg(PSP, 0x04010000)  returns 0x00 (0000ms, 0560ms total)
T032C 000:779 JLINK_WriteReg(CFBP, 0x00000000)  returns 0x00 (0000ms, 0560ms total)
T032C 000:779 JLINK_SetBPEx(Addr = 0x04000400, Type = 0xFFFFFFF2)  returns 0x00000006 (0000ms, 0560ms total)
T032C 000:779 JLINK_Go() -- CPU_WriteMem(4 bytes @ 0xE0002000) -- CPU_ReadMem(4 bytes @ 0xE0001000) (0003ms, 0563ms total)
T032C 000:782 JLINK_IsHalted()  returns FALSE (0001ms, 0564ms total)
T032C 000:796 JLINK_IsHalted()  returns TRUE (0002ms, 0565ms total)
T032C 000:798 JLINK_ReadReg(R15 (PC))  returns 0x04000400 (0000ms, 0563ms total)
T032C 000:798 JLINK_ClrBPEx(BPHandle = 0x00000006)  returns 0x00 (0000ms, 0563ms total)
T032C 000:798 JLINK_ReadReg(R0)  returns 0x00000000 (0000ms, 0563ms total)
T032C 000:798 JLINK_WriteMem(0x040020A8, 0x0800 Bytes, ...) - Data: 20 46 FF F7 95 FE 68 6B 07 90 23 46 00 20 02 90 ... -- CPU_WriteMem(2048 bytes @ 0x040020A8)  returns 0x800 (0007ms, 0570ms total)
T032C 000:805 JLINK_WriteReg(R0, 0x00001000)  returns 0x00 (0000ms, 0570ms total)
T032C 000:805 JLINK_WriteReg(R1, 0x00000800)  returns 0x00 (0000ms, 0570ms total)
T032C 000:805 JLINK_WriteReg(R2, 0x040020A8)  returns 0x00 (0000ms, 0570ms total)
T032C 000:805 JLINK_WriteReg(R3, 0x00000000)  returns 0x00 (0000ms, 0570ms total)
T032C 000:805 JLINK_WriteReg(R4, 0x00000000)  returns 0x00 (0000ms, 0570ms total)
T032C 000:805 JLINK_WriteReg(R5, 0x00000000)  returns 0x00 (0000ms, 0570ms total)
T032C 000:805 JLINK_WriteReg(R6, 0x00000000)  returns 0x00 (0000ms, 0570ms total)
T032C 000:805 JLINK_WriteReg(R7, 0x00000000)  returns 0x00 (0000ms, 0570ms total)
T032C 000:805 JLINK_WriteReg(R8, 0x00000000)  returns 0x00 (0000ms, 0570ms total)
T032C 000:805 JLINK_WriteReg(R9, 0x04001034)  returns 0x00 (0000ms, 0570ms total)
T032C 000:805 JLINK_WriteReg(R10, 0x00000000)  returns 0x00 (0000ms, 0570ms total)
T032C 000:805 JLINK_WriteReg(R11, 0x00000000)  returns 0x00 (0000ms, 0570ms total)
T032C 000:805 JLINK_WriteReg(R12, 0x00000000)  returns 0x00 (0000ms, 0570ms total)
T032C 000:805 JLINK_WriteReg(R13 (SP), 0x04010000)  returns 0x00 (0000ms, 0570ms total)
T032C 000:805 JLINK_WriteReg(R14, 0x04000401)  returns 0x00 (0000ms, 0570ms total)
T032C 000:805 JLINK_WriteReg(R15 (PC), 0x04000CB4)  returns 0x00 (0000ms, 0570ms total)
T032C 000:805 JLINK_WriteReg(XPSR, 0x01000000)  returns 0x00 (0000ms, 0570ms total)
T032C 000:805 JLINK_WriteReg(MSP, 0x04010000)  returns 0x00 (0000ms, 0570ms total)
T032C 000:805 JLINK_WriteReg(PSP, 0x04010000)  returns 0x00 (0000ms, 0570ms total)
T032C 000:805 JLINK_WriteReg(CFBP, 0x00000000)  returns 0x00 (0000ms, 0570ms total)
T032C 000:805 JLINK_SetBPEx(Addr = 0x04000400, Type = 0xFFFFFFF2)  returns 0x00000007 (0000ms, 0570ms total)
T032C 000:805 JLINK_Go() -- CPU_WriteMem(4 bytes @ 0xE0002000) -- CPU_ReadMem(4 bytes @ 0xE0001000) (0003ms, 0573ms total)
T032C 000:808 JLINK_IsHalted()  returns FALSE (0001ms, 0574ms total)
T032C 000:862 JLINK_IsHalted()  returns TRUE (0002ms, 0575ms total)
T032C 000:864 JLINK_ReadReg(R15 (PC))  returns 0x04000400 (0000ms, 0573ms total)
T032C 000:864 JLINK_ClrBPEx(BPHandle = 0x00000007)  returns 0x00 (0000ms, 0573ms total)
T032C 000:864 JLINK_ReadReg(R0)  returns 0x00000000 (0000ms, 0573ms total)
T032C 000:864 JLINK_WriteMem(0x040020A8, 0x0800 Bytes, ...) - Data: 62 6A 08 23 01 46 FF F7 A7 FA 61 6A 60 69 FF F7 ... -- CPU_WriteMem(2048 bytes @ 0x040020A8)  returns 0x800 (0007ms, 0580ms total)
T032C 000:871 JLINK_WriteReg(R0, 0x00001800)  returns 0x00 (0000ms, 0580ms total)
T032C 000:871 JLINK_WriteReg(R1, 0x00000800)  returns 0x00 (0000ms, 0580ms total)
T032C 000:871 JLINK_WriteReg(R2, 0x040020A8)  returns 0x00 (0000ms, 0580ms total)
T032C 000:871 JLINK_WriteReg(R3, 0x00000000)  returns 0x00 (0000ms, 0580ms total)
T032C 000:871 JLINK_WriteReg(R4, 0x00000000)  returns 0x00 (0000ms, 0580ms total)
T032C 000:871 JLINK_WriteReg(R5, 0x00000000)  returns 0x00 (0000ms, 0580ms total)
T032C 000:871 JLINK_WriteReg(R6, 0x00000000)  returns 0x00 (0000ms, 0580ms total)
T032C 000:871 JLINK_WriteReg(R7, 0x00000000)  returns 0x00 (0000ms, 0580ms total)
T032C 000:871 JLINK_WriteReg(R8, 0x00000000)  returns 0x00 (0000ms, 0580ms total)
T032C 000:871 JLINK_WriteReg(R9, 0x04001034)  returns 0x00 (0000ms, 0580ms total)
T032C 000:871 JLINK_WriteReg(R10, 0x00000000)  returns 0x00 (0000ms, 0580ms total)
T032C 000:871 JLINK_WriteReg(R11, 0x00000000)  returns 0x00 (0000ms, 0580ms total)
T032C 000:871 JLINK_WriteReg(R12, 0x00000000)  returns 0x00 (0000ms, 0580ms total)
T032C 000:871 JLINK_WriteReg(R13 (SP), 0x04010000)  returns 0x00 (0000ms, 0580ms total)
T032C 000:871 JLINK_WriteReg(R14, 0x04000401)  returns 0x00 (0000ms, 0580ms total)
T032C 000:871 JLINK_WriteReg(R15 (PC), 0x04000CB4)  returns 0x00 (0000ms, 0580ms total)
T032C 000:871 JLINK_WriteReg(XPSR, 0x01000000)  returns 0x00 (0000ms, 0580ms total)
T032C 000:871 JLINK_WriteReg(MSP, 0x04010000)  returns 0x00 (0000ms, 0580ms total)
T032C 000:871 JLINK_WriteReg(PSP, 0x04010000)  returns 0x00 (0000ms, 0580ms total)
T032C 000:871 JLINK_WriteReg(CFBP, 0x00000000)  returns 0x00 (0000ms, 0580ms total)
T032C 000:871 JLINK_SetBPEx(Addr = 0x04000400, Type = 0xFFFFFFF2)  returns 0x00000008 (0000ms, 0580ms total)
T032C 000:871 JLINK_Go() -- CPU_WriteMem(4 bytes @ 0xE0002000) -- CPU_ReadMem(4 bytes @ 0xE0001000) (0003ms, 0583ms total)
T032C 000:874 JLINK_IsHalted()  returns FALSE (0001ms, 0584ms total)
T032C 000:931 JLINK_IsHalted()  returns TRUE (0002ms, 0585ms total)
T032C 000:933 JLINK_ReadReg(R15 (PC))  returns 0x04000400 (0000ms, 0583ms total)
T032C 000:933 JLINK_ClrBPEx(BPHandle = 0x00000008)  returns 0x00 (0000ms, 0583ms total)
T032C 000:933 JLINK_ReadReg(R0)  returns 0x00000000 (0000ms, 0583ms total)
T032C 000:933 JLINK_WriteMem(0x040020A8, 0x0800 Bytes, ...) - Data: A2 F1 01 02 F1 DC 30 BD 20 2A 04 DB 20 3A 00 FA ... -- CPU_WriteMem(2048 bytes @ 0x040020A8)  returns 0x800 (0007ms, 0590ms total)
T032C 000:940 JLINK_WriteReg(R0, 0x00002000)  returns 0x00 (0000ms, 0590ms total)
T032C 000:940 JLINK_WriteReg(R1, 0x00000800)  returns 0x00 (0000ms, 0590ms total)
T032C 000:940 JLINK_WriteReg(R2, 0x040020A8)  returns 0x00 (0000ms, 0590ms total)
T032C 000:940 JLINK_WriteReg(R3, 0x00000000)  returns 0x00 (0000ms, 0590ms total)
T032C 000:940 JLINK_WriteReg(R4, 0x00000000)  returns 0x00 (0000ms, 0590ms total)
T032C 000:940 JLINK_WriteReg(R5, 0x00000000)  returns 0x00 (0000ms, 0590ms total)
T032C 000:940 JLINK_WriteReg(R6, 0x00000000)  returns 0x00 (0000ms, 0590ms total)
T032C 000:940 JLINK_WriteReg(R7, 0x00000000)  returns 0x00 (0000ms, 0590ms total)
T032C 000:940 JLINK_WriteReg(R8, 0x00000000)  returns 0x00 (0000ms, 0590ms total)
T032C 000:940 JLINK_WriteReg(R9, 0x04001034)  returns 0x00 (0000ms, 0590ms total)
T032C 000:940 JLINK_WriteReg(R10, 0x00000000)  returns 0x00 (0000ms, 0590ms total)
T032C 000:940 JLINK_WriteReg(R11, 0x00000000)  returns 0x00 (0000ms, 0590ms total)
T032C 000:940 JLINK_WriteReg(R12, 0x00000000)  returns 0x00 (0000ms, 0590ms total)
T032C 000:940 JLINK_WriteReg(R13 (SP), 0x04010000)  returns 0x00 (0000ms, 0590ms total)
T032C 000:940 JLINK_WriteReg(R14, 0x04000401)  returns 0x00 (0000ms, 0590ms total)
T032C 000:940 JLINK_WriteReg(R15 (PC), 0x04000CB4)  returns 0x00 (0000ms, 0590ms total)
T032C 000:940 JLINK_WriteReg(XPSR, 0x01000000)  returns 0x00 (0000ms, 0590ms total)
T032C 000:940 JLINK_WriteReg(MSP, 0x04010000)  returns 0x00 (0000ms, 0590ms total)
T032C 000:940 JLINK_WriteReg(PSP, 0x04010000)  returns 0x00 (0000ms, 0590ms total)
T032C 000:940 JLINK_WriteReg(CFBP, 0x00000000)  returns 0x00 (0000ms, 0590ms total)
T032C 000:940 JLINK_SetBPEx(Addr = 0x04000400, Type = 0xFFFFFFF2)  returns 0x00000009 (0000ms, 0590ms total)
T032C 000:940 JLINK_Go() -- CPU_WriteMem(4 bytes @ 0xE0002000) -- CPU_ReadMem(4 bytes @ 0xE0001000) (0003ms, 0593ms total)
T032C 000:943 JLINK_IsHalted()  returns FALSE (0001ms, 0594ms total)
T032C 000:969 JLINK_IsHalted()  returns TRUE (0002ms, 0595ms total)
T032C 000:971 JLINK_ReadReg(R15 (PC))  returns 0x04000400 (0000ms, 0593ms total)
T032C 000:971 JLINK_ClrBPEx(BPHandle = 0x00000009)  returns 0x00 (0000ms, 0593ms total)
T032C 000:971 JLINK_ReadReg(R0)  returns 0x00000000 (0000ms, 0593ms total)
T032C 000:971 JLINK_WriteMem(0x040020A8, 0x0800 Bytes, ...) - Data: 07 03 43 F0 04 03 53 60 13 4B 1A 68 42 F0 02 02 ... -- CPU_WriteMem(2048 bytes @ 0x040020A8)  returns 0x800 (0007ms, 0600ms total)
T032C 000:978 JLINK_WriteReg(R0, 0x00002800)  returns 0x00 (0000ms, 0600ms total)
T032C 000:978 JLINK_WriteReg(R1, 0x00000800)  returns 0x00 (0000ms, 0600ms total)
T032C 000:978 JLINK_WriteReg(R2, 0x040020A8)  returns 0x00 (0000ms, 0600ms total)
T032C 000:978 JLINK_WriteReg(R3, 0x00000000)  returns 0x00 (0000ms, 0600ms total)
T032C 000:978 JLINK_WriteReg(R4, 0x00000000)  returns 0x00 (0000ms, 0600ms total)
T032C 000:978 JLINK_WriteReg(R5, 0x00000000)  returns 0x00 (0000ms, 0600ms total)
T032C 000:978 JLINK_WriteReg(R6, 0x00000000)  returns 0x00 (0000ms, 0600ms total)
T032C 000:978 JLINK_WriteReg(R7, 0x00000000)  returns 0x00 (0000ms, 0600ms total)
T032C 000:978 JLINK_WriteReg(R8, 0x00000000)  returns 0x00 (0000ms, 0600ms total)
T032C 000:978 JLINK_WriteReg(R9, 0x04001034)  returns 0x00 (0000ms, 0600ms total)
T032C 000:978 JLINK_WriteReg(R10, 0x00000000)  returns 0x00 (0000ms, 0600ms total)
T032C 000:978 JLINK_WriteReg(R11, 0x00000000)  returns 0x00 (0000ms, 0600ms total)
T032C 000:978 JLINK_WriteReg(R12, 0x00000000)  returns 0x00 (0000ms, 0600ms total)
T032C 000:978 JLINK_WriteReg(R13 (SP), 0x04010000)  returns 0x00 (0000ms, 0600ms total)
T032C 000:978 JLINK_WriteReg(R14, 0x04000401)  returns 0x00 (0000ms, 0600ms total)
T032C 000:978 JLINK_WriteReg(R15 (PC), 0x04000CB4)  returns 0x00 (0000ms, 0600ms total)
T032C 000:978 JLINK_WriteReg(XPSR, 0x01000000)  returns 0x00 (0000ms, 0600ms total)
T032C 000:978 JLINK_WriteReg(MSP, 0x04010000)  returns 0x00 (0000ms, 0600ms total)
T032C 000:978 JLINK_WriteReg(PSP, 0x04010000)  returns 0x00 (0000ms, 0600ms total)
T032C 000:978 JLINK_WriteReg(CFBP, 0x00000000)  returns 0x00 (0000ms, 0600ms total)
T032C 000:978 JLINK_SetBPEx(Addr = 0x04000400, Type = 0xFFFFFFF2)  returns 0x0000000A (0000ms, 0600ms total)
T032C 000:978 JLINK_Go() -- CPU_WriteMem(4 bytes @ 0xE0002000) -- CPU_ReadMem(4 bytes @ 0xE0001000) (0003ms, 0603ms total)
T032C 000:981 JLINK_IsHalted()  returns FALSE (0001ms, 0604ms total)
T032C 000:992 JLINK_IsHalted()  returns FALSE (0000ms, 0603ms total)
T032C 000:993 JLINK_IsHalted()  returns FALSE (0000ms, 0603ms total)
T032C 000:994 JLINK_IsHalted()  returns TRUE (0002ms, 0605ms total)
T032C 000:996 JLINK_ReadReg(R15 (PC))  returns 0x04000400 (0000ms, 0603ms total)
T032C 000:996 JLINK_ClrBPEx(BPHandle = 0x0000000A)  returns 0x00 (0000ms, 0603ms total)
T032C 000:996 JLINK_ReadReg(R0)  returns 0x00000000 (0000ms, 0603ms total)
T032C 000:996 JLINK_WriteMem(0x040020A8, 0x0800 Bytes, ...) - Data: 41 F2 05 41 8A 42 3F F4 2D AD 42 F2 02 01 8A 42 ... -- CPU_WriteMem(2048 bytes @ 0x040020A8)  returns 0x800 (0007ms, 0610ms total)
T032C 001:003 JLINK_WriteReg(R0, 0x00003000)  returns 0x00 (0000ms, 0610ms total)
T032C 001:003 JLINK_WriteReg(R1, 0x00000800)  returns 0x00 (0000ms, 0610ms total)
T032C 001:003 JLINK_WriteReg(R2, 0x040020A8)  returns 0x00 (0000ms, 0610ms total)
T032C 001:003 JLINK_WriteReg(R3, 0x00000000)  returns 0x00 (0000ms, 0610ms total)
T032C 001:003 JLINK_WriteReg(R4, 0x00000000)  returns 0x00 (0000ms, 0610ms total)
T032C 001:003 JLINK_WriteReg(R5, 0x00000000)  returns 0x00 (0000ms, 0610ms total)
T032C 001:003 JLINK_WriteReg(R6, 0x00000000)  returns 0x00 (0000ms, 0610ms total)
T032C 001:003 JLINK_WriteReg(R7, 0x00000000)  returns 0x00 (0000ms, 0610ms total)
T032C 001:003 JLINK_WriteReg(R8, 0x00000000)  returns 0x00 (0000ms, 0610ms total)
T032C 001:003 JLINK_WriteReg(R9, 0x04001034)  returns 0x00 (0000ms, 0610ms total)
T032C 001:003 JLINK_WriteReg(R10, 0x00000000)  returns 0x00 (0000ms, 0610ms total)
T032C 001:003 JLINK_WriteReg(R11, 0x00000000)  returns 0x00 (0000ms, 0610ms total)
T032C 001:003 JLINK_WriteReg(R12, 0x00000000)  returns 0x00 (0000ms, 0610ms total)
T032C 001:003 JLINK_WriteReg(R13 (SP), 0x04010000)  returns 0x00 (0000ms, 0610ms total)
T032C 001:003 JLINK_WriteReg(R14, 0x04000401)  returns 0x00 (0000ms, 0610ms total)
T032C 001:003 JLINK_WriteReg(R15 (PC), 0x04000CB4)  returns 0x00 (0000ms, 0610ms total)
T032C 001:003 JLINK_WriteReg(XPSR, 0x01000000)  returns 0x00 (0000ms, 0610ms total)
T032C 001:003 JLINK_WriteReg(MSP, 0x04010000)  returns 0x00 (0000ms, 0610ms total)
T032C 001:003 JLINK_WriteReg(PSP, 0x04010000)  returns 0x00 (0000ms, 0610ms total)
T032C 001:003 JLINK_WriteReg(CFBP, 0x00000000)  returns 0x00 (0000ms, 0610ms total)
T032C 001:003 JLINK_SetBPEx(Addr = 0x04000400, Type = 0xFFFFFFF2)  returns 0x0000000B (0000ms, 0610ms total)
T032C 001:003 JLINK_Go() -- CPU_WriteMem(4 bytes @ 0xE0002000) -- CPU_ReadMem(4 bytes @ 0xE0001000) (0003ms, 0613ms total)
T032C 001:006 JLINK_IsHalted()  returns FALSE (0001ms, 0614ms total)
T032C 001:008 JLINK_IsHalted()  returns FALSE (0000ms, 0613ms total)
T032C 001:009 JLINK_IsHalted()  returns FALSE (0000ms, 0613ms total)
T032C 001:010 JLINK_IsHalted()  returns FALSE (0000ms, 0613ms total)
T032C 001:011 JLINK_IsHalted()  returns FALSE (0000ms, 0613ms total)
T032C 001:012 JLINK_IsHalted()  returns FALSE (0000ms, 0613ms total)
T032C 001:013 JLINK_IsHalted()  returns FALSE (0000ms, 0613ms total)
T032C 001:014 JLINK_IsHalted()  returns FALSE (0000ms, 0613ms total)
T032C 001:015 JLINK_IsHalted()  returns FALSE (0000ms, 0613ms total)
T032C 001:016 JLINK_IsHalted()  returns FALSE (0000ms, 0613ms total)
T032C 001:017 JLINK_IsHalted()  returns FALSE (0000ms, 0613ms total)
T032C 001:018 JLINK_IsHalted()  returns TRUE (0002ms, 0615ms total)
T032C 001:020 JLINK_ReadReg(R15 (PC))  returns 0x04000400 (0000ms, 0613ms total)
T032C 001:020 JLINK_ClrBPEx(BPHandle = 0x0000000B)  returns 0x00 (0000ms, 0613ms total)
T032C 001:020 JLINK_ReadReg(R0)  returns 0x00000000 (0000ms, 0613ms total)
T032C 001:020 JLINK_WriteMem(0x040020A8, 0x0800 Bytes, ...) - Data: AC 10 00 04 55 7A 00 04 7F B5 04 46 16 46 FF F7 ... -- CPU_WriteMem(2048 bytes @ 0x040020A8)  returns 0x800 (0007ms, 0620ms total)
T032C 001:027 JLINK_WriteReg(R0, 0x00003800)  returns 0x00 (0000ms, 0620ms total)
T032C 001:027 JLINK_WriteReg(R1, 0x00000800)  returns 0x00 (0000ms, 0620ms total)
T032C 001:027 JLINK_WriteReg(R2, 0x040020A8)  returns 0x00 (0000ms, 0620ms total)
T032C 001:027 JLINK_WriteReg(R3, 0x00000000)  returns 0x00 (0000ms, 0620ms total)
T032C 001:027 JLINK_WriteReg(R4, 0x00000000)  returns 0x00 (0000ms, 0620ms total)
T032C 001:027 JLINK_WriteReg(R5, 0x00000000)  returns 0x00 (0000ms, 0620ms total)
T032C 001:027 JLINK_WriteReg(R6, 0x00000000)  returns 0x00 (0000ms, 0620ms total)
T032C 001:027 JLINK_WriteReg(R7, 0x00000000)  returns 0x00 (0000ms, 0620ms total)
T032C 001:027 JLINK_WriteReg(R8, 0x00000000)  returns 0x00 (0000ms, 0620ms total)
T032C 001:027 JLINK_WriteReg(R9, 0x04001034)  returns 0x00 (0000ms, 0620ms total)
T032C 001:027 JLINK_WriteReg(R10, 0x00000000)  returns 0x00 (0000ms, 0620ms total)
T032C 001:027 JLINK_WriteReg(R11, 0x00000000)  returns 0x00 (0000ms, 0620ms total)
T032C 001:027 JLINK_WriteReg(R12, 0x00000000)  returns 0x00 (0000ms, 0620ms total)
T032C 001:027 JLINK_WriteReg(R13 (SP), 0x04010000)  returns 0x00 (0000ms, 0620ms total)
T032C 001:027 JLINK_WriteReg(R14, 0x04000401)  returns 0x00 (0000ms, 0620ms total)
T032C 001:027 JLINK_WriteReg(R15 (PC), 0x04000CB4)  returns 0x00 (0000ms, 0620ms total)
T032C 001:027 JLINK_WriteReg(XPSR, 0x01000000)  returns 0x00 (0000ms, 0620ms total)
T032C 001:027 JLINK_WriteReg(MSP, 0x04010000)  returns 0x00 (0000ms, 0620ms total)
T032C 001:027 JLINK_WriteReg(PSP, 0x04010000)  returns 0x00 (0000ms, 0620ms total)
T032C 001:027 JLINK_WriteReg(CFBP, 0x00000000)  returns 0x00 (0000ms, 0620ms total)
T032C 001:027 JLINK_SetBPEx(Addr = 0x04000400, Type = 0xFFFFFFF2)  returns 0x0000000C (0000ms, 0620ms total)
T032C 001:027 JLINK_Go() -- CPU_WriteMem(4 bytes @ 0xE0002000) -- CPU_ReadMem(4 bytes @ 0xE0001000) (0003ms, 0623ms total)
T032C 001:030 JLINK_IsHalted()  returns FALSE (0001ms, 0624ms total)
T032C 001:033 JLINK_IsHalted()  returns FALSE (0000ms, 0623ms total)
T032C 001:034 JLINK_IsHalted()  returns FALSE (0000ms, 0623ms total)
T032C 001:035 JLINK_IsHalted()  returns FALSE (0000ms, 0623ms total)
T032C 001:036 JLINK_IsHalted()  returns FALSE (0000ms, 0623ms total)
T032C 001:037 JLINK_IsHalted()  returns FALSE (0000ms, 0623ms total)
T032C 001:038 JLINK_IsHalted()  returns FALSE (0000ms, 0623ms total)
T032C 001:039 JLINK_IsHalted()  returns FALSE (0000ms, 0623ms total)
T032C 001:040 JLINK_IsHalted()  returns FALSE (0000ms, 0623ms total)
T032C 001:041 JLINK_IsHalted()  returns FALSE (0000ms, 0623ms total)
T032C 001:042 JLINK_IsHalted()  returns TRUE (0002ms, 0625ms total)
T032C 001:044 JLINK_ReadReg(R15 (PC))  returns 0x04000400 (0000ms, 0623ms total)
T032C 001:044 JLINK_ClrBPEx(BPHandle = 0x0000000C)  returns 0x00 (0000ms, 0623ms total)
T032C 001:044 JLINK_ReadReg(R0)  returns 0x00000000 (0000ms, 0623ms total)
T032C 001:044 JLINK_WriteMem(0x040020A8, 0x0800 Bytes, ...) - Data: 04 F0 EC FC 0C B0 70 BD 02 F0 93 B9 10 B5 00 21 ... -- CPU_WriteMem(2048 bytes @ 0x040020A8)  returns 0x800 (0007ms, 0630ms total)
T032C 001:051 JLINK_WriteReg(R0, 0x00004000)  returns 0x00 (0000ms, 0630ms total)
T032C 001:051 JLINK_WriteReg(R1, 0x00000800)  returns 0x00 (0000ms, 0630ms total)
T032C 001:051 JLINK_WriteReg(R2, 0x040020A8)  returns 0x00 (0000ms, 0630ms total)
T032C 001:051 JLINK_WriteReg(R3, 0x00000000)  returns 0x00 (0000ms, 0630ms total)
T032C 001:051 JLINK_WriteReg(R4, 0x00000000)  returns 0x00 (0000ms, 0630ms total)
T032C 001:051 JLINK_WriteReg(R5, 0x00000000)  returns 0x00 (0000ms, 0630ms total)
T032C 001:051 JLINK_WriteReg(R6, 0x00000000)  returns 0x00 (0000ms, 0630ms total)
T032C 001:051 JLINK_WriteReg(R7, 0x00000000)  returns 0x00 (0000ms, 0630ms total)
T032C 001:051 JLINK_WriteReg(R8, 0x00000000)  returns 0x00 (0000ms, 0630ms total)
T032C 001:051 JLINK_WriteReg(R9, 0x04001034)  returns 0x00 (0000ms, 0630ms total)
T032C 001:051 JLINK_WriteReg(R10, 0x00000000)  returns 0x00 (0000ms, 0630ms total)
T032C 001:051 JLINK_WriteReg(R11, 0x00000000)  returns 0x00 (0000ms, 0630ms total)
T032C 001:051 JLINK_WriteReg(R12, 0x00000000)  returns 0x00 (0000ms, 0630ms total)
T032C 001:051 JLINK_WriteReg(R13 (SP), 0x04010000)  returns 0x00 (0000ms, 0630ms total)
T032C 001:051 JLINK_WriteReg(R14, 0x04000401)  returns 0x00 (0000ms, 0630ms total)
T032C 001:051 JLINK_WriteReg(R15 (PC), 0x04000CB4)  returns 0x00 (0000ms, 0630ms total)
T032C 001:051 JLINK_WriteReg(XPSR, 0x01000000)  returns 0x00 (0000ms, 0630ms total)
T032C 001:051 JLINK_WriteReg(MSP, 0x04010000)  returns 0x00 (0000ms, 0630ms total)
T032C 001:051 JLINK_WriteReg(PSP, 0x04010000)  returns 0x00 (0000ms, 0630ms total)
T032C 001:051 JLINK_WriteReg(CFBP, 0x00000000)  returns 0x00 (0000ms, 0630ms total)
T032C 001:051 JLINK_SetBPEx(Addr = 0x04000400, Type = 0xFFFFFFF2)  returns 0x0000000D (0000ms, 0630ms total)
T032C 001:051 JLINK_Go() -- CPU_WriteMem(4 bytes @ 0xE0002000) -- CPU_ReadMem(4 bytes @ 0xE0001000) (0004ms, 0634ms total)
T032C 001:055 JLINK_IsHalted()  returns FALSE (0001ms, 0635ms total)
T032C 001:057 JLINK_IsHalted()  returns FALSE (0000ms, 0634ms total)
T032C 001:058 JLINK_IsHalted()  returns FALSE (0000ms, 0634ms total)
T032C 001:059 JLINK_IsHalted()  returns FALSE (0000ms, 0634ms total)
T032C 001:060 JLINK_IsHalted()  returns FALSE (0000ms, 0634ms total)
T032C 001:061 JLINK_IsHalted()  returns FALSE (0000ms, 0634ms total)
T032C 001:062 JLINK_IsHalted()  returns FALSE (0000ms, 0634ms total)
T032C 001:063 JLINK_IsHalted()  returns FALSE (0000ms, 0634ms total)
T032C 001:064 JLINK_IsHalted()  returns FALSE (0000ms, 0634ms total)
T032C 001:065 JLINK_IsHalted()  returns FALSE (0000ms, 0634ms total)
T032C 001:066 JLINK_IsHalted()  returns FALSE (0000ms, 0634ms total)
T032C 001:067 JLINK_IsHalted()  returns TRUE (0002ms, 0636ms total)
T032C 001:069 JLINK_ReadReg(R15 (PC))  returns 0x04000400 (0000ms, 0634ms total)
T032C 001:069 JLINK_ClrBPEx(BPHandle = 0x0000000D)  returns 0x00 (0000ms, 0634ms total)
T032C 001:069 JLINK_ReadReg(R0)  returns 0x00000000 (0000ms, 0634ms total)
T032C 001:069 JLINK_WriteMem(0x040020A8, 0x0800 Bytes, ...) - Data: 1A 46 30 46 14 F0 1A F9 28 46 05 B0 F0 BD 01 25 ... -- CPU_WriteMem(2048 bytes @ 0x040020A8)  returns 0x800 (0007ms, 0641ms total)
T032C 001:076 JLINK_WriteReg(R0, 0x00004800)  returns 0x00 (0000ms, 0641ms total)
T032C 001:076 JLINK_WriteReg(R1, 0x00000800)  returns 0x00 (0000ms, 0641ms total)
T032C 001:076 JLINK_WriteReg(R2, 0x040020A8)  returns 0x00 (0000ms, 0641ms total)
T032C 001:076 JLINK_WriteReg(R3, 0x00000000)  returns 0x00 (0000ms, 0641ms total)
T032C 001:076 JLINK_WriteReg(R4, 0x00000000)  returns 0x00 (0000ms, 0641ms total)
T032C 001:076 JLINK_WriteReg(R5, 0x00000000)  returns 0x00 (0000ms, 0641ms total)
T032C 001:076 JLINK_WriteReg(R6, 0x00000000)  returns 0x00 (0000ms, 0641ms total)
T032C 001:076 JLINK_WriteReg(R7, 0x00000000)  returns 0x00 (0000ms, 0641ms total)
T032C 001:076 JLINK_WriteReg(R8, 0x00000000)  returns 0x00 (0000ms, 0641ms total)
T032C 001:076 JLINK_WriteReg(R9, 0x04001034)  returns 0x00 (0000ms, 0641ms total)
T032C 001:076 JLINK_WriteReg(R10, 0x00000000)  returns 0x00 (0000ms, 0641ms total)
T032C 001:076 JLINK_WriteReg(R11, 0x00000000)  returns 0x00 (0000ms, 0641ms total)
T032C 001:076 JLINK_WriteReg(R12, 0x00000000)  returns 0x00 (0000ms, 0641ms total)
T032C 001:076 JLINK_WriteReg(R13 (SP), 0x04010000)  returns 0x00 (0000ms, 0641ms total)
T032C 001:076 JLINK_WriteReg(R14, 0x04000401)  returns 0x00 (0000ms, 0641ms total)
T032C 001:076 JLINK_WriteReg(R15 (PC), 0x04000CB4)  returns 0x00 (0000ms, 0641ms total)
T032C 001:076 JLINK_WriteReg(XPSR, 0x01000000)  returns 0x00 (0000ms, 0641ms total)
T032C 001:076 JLINK_WriteReg(MSP, 0x04010000)  returns 0x00 (0000ms, 0641ms total)
T032C 001:076 JLINK_WriteReg(PSP, 0x04010000)  returns 0x00 (0000ms, 0641ms total)
T032C 001:076 JLINK_WriteReg(CFBP, 0x00000000)  returns 0x00 (0000ms, 0641ms total)
T032C 001:076 JLINK_SetBPEx(Addr = 0x04000400, Type = 0xFFFFFFF2)  returns 0x0000000E (0000ms, 0641ms total)
T032C 001:076 JLINK_Go() -- CPU_WriteMem(4 bytes @ 0xE0002000) -- CPU_ReadMem(4 bytes @ 0xE0001000) (0004ms, 0645ms total)
T032C 001:080 JLINK_IsHalted()  returns FALSE (0001ms, 0646ms total)
T032C 001:083 JLINK_IsHalted()  returns FALSE (0000ms, 0645ms total)
T032C 001:084 JLINK_IsHalted()  returns FALSE (0000ms, 0645ms total)
T032C 001:085 JLINK_IsHalted()  returns FALSE (0000ms, 0645ms total)
T032C 001:086 JLINK_IsHalted()  returns FALSE (0000ms, 0645ms total)
T032C 001:087 JLINK_IsHalted()  returns FALSE (0000ms, 0645ms total)
T032C 001:088 JLINK_IsHalted()  returns FALSE (0000ms, 0645ms total)
T032C 001:089 JLINK_IsHalted()  returns FALSE (0000ms, 0645ms total)
T032C 001:090 JLINK_IsHalted()  returns FALSE (0000ms, 0645ms total)
T032C 001:091 JLINK_IsHalted()  returns FALSE (0000ms, 0645ms total)
T032C 001:092 JLINK_IsHalted()  returns TRUE (0002ms, 0647ms total)
T032C 001:094 JLINK_ReadReg(R15 (PC))  returns 0x04000400 (0000ms, 0645ms total)
T032C 001:094 JLINK_ClrBPEx(BPHandle = 0x0000000E)  returns 0x00 (0000ms, 0645ms total)
T032C 001:094 JLINK_ReadReg(R0)  returns 0x00000000 (0000ms, 0645ms total)
T032C 001:095 JLINK_WriteMem(0x040020A8, 0x0800 Bytes, ...) - Data: 0A 20 1A F0 5D FE 01 46 80 B1 23 23 03 70 06 71 ... -- CPU_WriteMem(2048 bytes @ 0x040020A8)  returns 0x800 (0006ms, 0651ms total)
T032C 001:101 JLINK_WriteReg(R0, 0x00005000)  returns 0x00 (0000ms, 0651ms total)
T032C 001:101 JLINK_WriteReg(R1, 0x00000800)  returns 0x00 (0000ms, 0651ms total)
T032C 001:101 JLINK_WriteReg(R2, 0x040020A8)  returns 0x00 (0000ms, 0651ms total)
T032C 001:101 JLINK_WriteReg(R3, 0x00000000)  returns 0x00 (0000ms, 0651ms total)
T032C 001:101 JLINK_WriteReg(R4, 0x00000000)  returns 0x00 (0000ms, 0651ms total)
T032C 001:101 JLINK_WriteReg(R5, 0x00000000)  returns 0x00 (0000ms, 0651ms total)
T032C 001:101 JLINK_WriteReg(R6, 0x00000000)  returns 0x00 (0000ms, 0651ms total)
T032C 001:101 JLINK_WriteReg(R7, 0x00000000)  returns 0x00 (0000ms, 0651ms total)
T032C 001:101 JLINK_WriteReg(R8, 0x00000000)  returns 0x00 (0000ms, 0651ms total)
T032C 001:101 JLINK_WriteReg(R9, 0x04001034)  returns 0x00 (0000ms, 0651ms total)
T032C 001:101 JLINK_WriteReg(R10, 0x00000000)  returns 0x00 (0000ms, 0651ms total)
T032C 001:101 JLINK_WriteReg(R11, 0x00000000)  returns 0x00 (0001ms, 0652ms total)
T032C 001:102 JLINK_WriteReg(R12, 0x00000000)  returns 0x00 (0000ms, 0652ms total)
T032C 001:102 JLINK_WriteReg(R13 (SP), 0x04010000)  returns 0x00 (0000ms, 0652ms total)
T032C 001:102 JLINK_WriteReg(R14, 0x04000401)  returns 0x00 (0000ms, 0652ms total)
T032C 001:102 JLINK_WriteReg(R15 (PC), 0x04000CB4)  returns 0x00 (0000ms, 0652ms total)
T032C 001:102 JLINK_WriteReg(XPSR, 0x01000000)  returns 0x00 (0000ms, 0652ms total)
T032C 001:102 JLINK_WriteReg(MSP, 0x04010000)  returns 0x00 (0000ms, 0652ms total)
T032C 001:102 JLINK_WriteReg(PSP, 0x04010000)  returns 0x00 (0000ms, 0652ms total)
T032C 001:102 JLINK_WriteReg(CFBP, 0x00000000)  returns 0x00 (0000ms, 0652ms total)
T032C 001:102 JLINK_SetBPEx(Addr = 0x04000400, Type = 0xFFFFFFF2)  returns 0x0000000F (0000ms, 0652ms total)
T032C 001:102 JLINK_Go() -- CPU_WriteMem(4 bytes @ 0xE0002000) -- CPU_ReadMem(4 bytes @ 0xE0001000) (0003ms, 0655ms total)
T032C 001:106 JLINK_IsHalted()  returns FALSE (0000ms, 0655ms total)
T032C 001:107 JLINK_IsHalted()  returns FALSE (0000ms, 0655ms total)
T032C 001:108 JLINK_IsHalted()  returns FALSE (0000ms, 0655ms total)
T032C 001:109 JLINK_IsHalted()  returns FALSE (0000ms, 0655ms total)
T032C 001:110 JLINK_IsHalted()  returns FALSE (0000ms, 0655ms total)
T032C 001:111 JLINK_IsHalted()  returns FALSE (0000ms, 0655ms total)
T032C 001:112 JLINK_IsHalted()  returns FALSE (0000ms, 0655ms total)
T032C 001:113 JLINK_IsHalted()  returns FALSE (0000ms, 0655ms total)
T032C 001:114 JLINK_IsHalted()  returns FALSE (0000ms, 0655ms total)
T032C 001:115 JLINK_IsHalted()  returns FALSE (0000ms, 0655ms total)
T032C 001:116 JLINK_IsHalted()  returns FALSE (0000ms, 0655ms total)
T032C 001:117 JLINK_IsHalted()  returns FALSE (0000ms, 0655ms total)
T032C 001:118 JLINK_IsHalted()  returns TRUE (0002ms, 0657ms total)
T032C 001:120 JLINK_ReadReg(R15 (PC))  returns 0x04000400 (0000ms, 0655ms total)
T032C 001:120 JLINK_ClrBPEx(BPHandle = 0x0000000F)  returns 0x00 (0000ms, 0655ms total)
T032C 001:120 JLINK_ReadReg(R0)  returns 0x00000000 (0000ms, 0655ms total)
T032C 001:120 JLINK_WriteMem(0x040020A8, 0x0800 Bytes, ...) - Data: 0D F1 0E 00 06 22 18 F0 0E FE 63 7B 8D F8 14 30 ... -- CPU_WriteMem(2048 bytes @ 0x040020A8)  returns 0x800 (0007ms, 0662ms total)
T032C 001:127 JLINK_WriteReg(R0, 0x00005800)  returns 0x00 (0000ms, 0662ms total)
T032C 001:127 JLINK_WriteReg(R1, 0x00000800)  returns 0x00 (0000ms, 0662ms total)
T032C 001:127 JLINK_WriteReg(R2, 0x040020A8)  returns 0x00 (0000ms, 0662ms total)
T032C 001:127 JLINK_WriteReg(R3, 0x00000000)  returns 0x00 (0000ms, 0662ms total)
